! CL03A105MP3NSN Multilayer Ceramic Capacitor Sparameter Model
!-----------------------------------------------------------------------------------------------
! Model Generated by Samsung Electro-Mechanics
! Samsung Sparameter Version 5.0
! Date : Feb-10-2026
! Products : Multilayer Ceramic Capacitor(General)
!-----------------------------------------------------------------------------------------------
! Characteristics :
!
!     Nominal Capacitance = 1uF
!     Capacitance Tolerance = ˇľ20%
!     TCC = X5R(-55 ~ +85 degC.)
!     Rated Voltage = 10Vdc
!     Size = 0201(unit:inch), 0603(unit:mm)
!     Length = 0.60ˇľ0.05mm
!     Width = 0.30ˇľ0.05mm
!     Thickness = 0.30ˇľ0.05mm
!     Reliability level = Standard
!     Lineup = Lineup Normal
!     Feature = Features Normal
!     Measurement Temperature : 25degC.
!     DC bias Value = 0V
!     Frequency : 100Hz ~ 6GHz
!-----------------------------------------------------------------------------------------------
! External Node Assignments :
!
!  1  o---||---o  2
!
!-----------------------------------------------------------------------------------------------
# MHz S RI R 50.0
! Freq.  Real(S11)  Im(S11)  Real(S12)  Im(S12)  Real(S21)  Im(S21)  Real(S22)  Im(S22)
1.0E-4	0.9964750412970885	-0.048482839712358554	0.003524958702911364	0.048482839712358554	0.003524958702911364	0.048482839712358554	0.9964750412970885	-0.048482839712358554
1.061729498647108E-4	0.9961213436784356	-0.0514208152149125	0.0038786563215644546	0.0514208152149125	0.0038786563215644546	0.0514208152149125	0.9961213436784356	-0.0514208152149125
1.1272695282974394E-4	0.9957253699248233	-0.05453481865543327	0.0042746300751766945	0.05453481865543327	0.0042746300751766945	0.05453481865543327	0.9957253699248233	-0.05453481865543327
1.1968553111194022E-4	0.9952820197466893	-0.057834602667724895	0.004717980253310695	0.057834602667724895	0.004717980253310695	0.057834602667724895	0.9952820197466893	-0.057834602667724895
1.2707365894279313E-4	0.9947856366475287	-0.061330343651716704	0.005214363352471221	0.061330343651716704	0.005214363352471221	0.061330343651716704	0.9947856366475287	-0.061330343651716704
1.3491785220058549E-4	0.9942299525326752	-0.06503264527872721	0.005770047467324866	0.06503264527872721	0.005770047467324866	0.06503264527872721	0.9942299525326752	-0.06503264527872721
1.4324626357547222E-4	0.9936080272442543	-0.06895253979375075	0.006391972755745768	0.06895253979375075	0.006391972755745768	0.06895253979375075	0.9936080272442543	-0.06895253979375075
1.5208878360905762E-4	0.9929121824000522	-0.0731014868184321	0.007087817599947783	0.0731014868184321	0.007087817599947783	0.0731014868184321	0.9929121824000522	-0.0731014868184321
1.6147714797109324E-4	0.9921339287480883	-0.07749136926387838	0.0078660712519117	0.07749136926387838	0.0078660712519117	0.07749136926387838	0.9921339287480883	-0.07749136926387838
1.7144505135831373E-4	0.9912638860554733	-0.08213448580698965	0.008736113944526664	0.08213448580698965	0.008736113944526664	0.08213448580698965	0.9912638860554733	-0.08213448580698965
1.820282684241901E-4	0.9902916943399663	-0.08704353914617954	0.009708305660033643	0.08704353914617954	0.009708305660033643	0.08704353914617954	0.9902916943399663	-0.08704353914617954
1.9326478217361655E-4	0.9892059150446486	-0.09223161890987336	0.01079408495535144	0.09223161890987336	0.01079408495535144	0.09223161890987336	0.9892059150446486	-0.09223161890987336
2.0519492028333645E-4	0.9879939205801171	-0.09771217762376683	0.012006079419882855	0.09771217762376683	0.012006079419882855	0.09771217762376683	0.9879939205801171	-0.09771217762376683
2.178614998373603E-4	0.9866417705558423	-0.10349899753664604	0.01335822944415771	0.10349899753664604	0.01335822944415771	0.10349899753664604	0.9866417705558423	-0.10349899753664604
2.3130998099682757E-4	0.9851340730446985	-0.10960614535724816	0.014865926955301683	0.10960614535724816	0.014865926955301683	0.10960614535724816	0.9851340730446985	-0.10960614535724816
2.455886301558338E-4	0.9834538294314275	-0.11604791108058686	0.016546170568572622	0.11604791108058686	0.016546170568572622	0.11604791108058686	0.9834538294314275	-0.11604791108058686
2.607486931687835E-4	0.9815822618477941	-0.12283872611680385	0.018417738152205942	0.12283872611680385	0.018417738152205942	0.12283872611680385	0.9815822618477941	-0.12283872611680385
2.7684457927098106E-4	0.9794986229489968	-0.12999305493725458	0.020501377051003085	0.12999305493725458	0.020501377051003085	0.12999305493725458	0.9794986229489968	-0.12999305493725458
2.9393405635254826E-4	0.9771799888767847	-0.13752525350072048	0.022820011123215404	0.13752525350072048	0.022820011123215404	0.13752525350072048	0.9771799888767847	-0.13752525350072048
3.120784582865019E-4	0.9746010377005786	-0.145449386912249	0.02539896229942149	0.145449386912249	0.02539896229942149	0.145449386912249	0.9746010377005786	-0.145449386912249
3.3134290505509E-4	0.9717338174162957	-0.15377899819899998	0.02826618258370422	0.15377899819899998	0.02826618258370422	0.15377899819899998	0.9717338174162957	-0.15377899819899998
3.5179653646441703E-4	0.9685475096728275	-0.16252681985727402	0.031452490327172386	0.16252681985727402	0.031452490327172386	0.16252681985727402	0.9685475096728275	-0.16252681985727402
3.7351276028615456E-4	0.9650081977252083	-0.17170442001329775	0.034991802274791574	0.17170442001329775	0.034991802274791574	0.17170442001329775	0.9650081977252083	-0.17170442001329775
3.9656951571691664E-4	0.9610786496064215	-0.1813217757079919	0.03892135039357824	0.1813217757079919	0.03892135039357824	0.1813217757079919	0.9610786496064215	-0.1813217757079919
4.210495531008484E-4	0.9567181300915139	-0.19138676700561574	0.04328186990848625	0.19138676700561574	0.04328186990848625	0.19138676700561574	0.9567181300915139	-0.19138676700561574
4.470407309193526E-4	0.9518822576319019	-0.20190458737272232	0.048117742368098085	0.20190458737272232	0.048117742368098085	0.20190458737272232	0.9518822576319019	-0.20190458737272232
4.74636331113841E-4	0.9465229250077868	-0.21287706811971682	0.05347707499221326	0.21287706811971682	0.05347707499221326	0.21287706811971682	0.9465229250077868	-0.21287706811971682
5.039353938732011E-4	0.9405883049251269	-0.22430191770888852	0.059411695074873073	0.22430191770888852	0.059411695074873073	0.22430191770888852	0.9405883049251269	-0.22430191770888852
5.350430730875267E-4	0.9340229640911821	-0.2361718805111264	0.0659770359088179	0.2361718805111264	0.0659770359088179	0.2361718805111264	0.9340229640911821	-0.2361718805111264
5.680710137438283E-4	0.9267681113067722	-0.2484738242732178	0.07323188869322797	0.2484738242732178	0.07323188869322797	0.2484738242732178	0.9267681113067722	-0.2484738242732178
6.031377526181892E-4	0.9187620065953984	-0.26118777128882786	0.08123799340460154	0.26118777128882786	0.08123799340460154	0.26118777128882786	0.9187620065953984	-0.26118777128882786
6.403691437024535E-4	0.909940559015159	-0.27428589517795726	0.09005944098484105	0.27428589517795726	0.09005944098484105	0.27428589517795726	0.909940559015159	-0.27428589517795726
6.798988098922838E-4	0.9002381401038644	-0.2877315133247996	0.09976185989613563	0.2877315133247996	0.09976185989613563	0.2877315133247996	0.9002381401038644	-0.2877315133247996
7.218686225576998E-4	0.8895886373006519	-0.3014781143104306	0.11041136269934805	0.3014781143104306	0.11041136269934805	0.3014781143104306	0.8895886373006519	-0.3014781143104306
7.66429210717265E-4	0.8779267664883327	-0.31546846979153675	0.1220732335116673	0.31546846979153675	0.1220732335116673	0.31546846979153675	0.8779267664883327	-0.31546846979153675
8.137405016433406E-4	0.8651896543103462	-0.32963389061235904	0.13481034568965364	0.32963389061235904	0.13481034568965364	0.32963389061235904	0.8651896543103462	-0.32963389061235904
8.639722948386301E-4	0.8513186885268228	-0.3438936965379001	0.14868131147317715	0.3438936965379001	0.14868131147317715	0.3438936965379001	0.8513186885268228	-0.3438936965379001
9.173048714440101E-4	0.8362616180198829	-0.3581549765377713	0.16373838198011714	0.3581549765377713	0.16373838198011714	0.3581549765377713	0.8362616180198829	-0.3581549765377713
9.739296412647988E-4	0.8199748631951371	-0.3723127203792299	0.18002513680486285	0.3723127203792299	0.18002513680486285	0.3723127203792299	0.8199748631951371	-0.3723127203792299
0.0010340498297376325	0.8024259731229111	-0.38625040054616167	0.19757402687708878	0.38625040054616167	0.19757402687708878	0.38625040054616167	0.8024259731229111	-0.38625040054616167
0.0010978812073034639	0.7835961392641388	-0.39984107434427063	0.21640386073586118	0.39984107434427063	0.21640386073586118	0.39984107434427063	0.7835961392641388	-0.39984107434427063
0.0011656528638043897	0.7634826493410638	-0.4129490579757264	0.23651735065893614	0.4129490579757264	0.23651735065893614	0.4129490579757264	0.7634826493410638	-0.4129490579757264
0.0012376080306836003	0.7421011419658292	-0.42543219660141424	0.2578988580341708	0.42543219660141424	0.2578988580341708	0.42543219660141424	0.7421011419658292	-0.42543219660141424
0.0013140049539393335	0.7194875067301357	-0.4371447173454188	0.28051249326986427	0.4371447173454188	0.28051249326986427	0.4371447173454188	0.7194875067301357	-0.4371447173454188
0.0013951178209658248	0.6956992694036636	-0.447940607723672	0.3043007305963364	0.447940607723672	0.3043007305963364	0.447940607723672	0.6956992694036636	-0.447940607723672
0.0014812377446076926	0.6708163109689301	-0.45767741363292375	0.3291836890310699	0.45767741363292375	0.3291836890310699	0.45767741363292375	0.6708163109689301	-0.45767741363292375
0.0015726738079594985	0.6449407944221052	-0.4662203038380665	0.3550592055778949	0.4662203038380665	0.3550592055778949	0.4662203038380665	0.6449407944221052	-0.4662203038380665
0.0016697541736602763	0.6181962145804818	-0.47344620781256774	0.3818037854195182	0.47344620781256774	0.3818037854195182	0.47344620781256774	0.6181962145804818	-0.47344620781256774
0.0017728272616642413	0.5907255410978927	-0.4792478068406374	0.4092744589021074	0.4792478068406374	0.4092744589021074	0.4792478068406374	0.5907255410978927	-0.4792478068406374
0.0018822629997147003	0.5626884885868236	-0.48353714945228293	0.4373115114131765	0.48353714945228293	0.4373115114131765	0.48353714945228293	0.5626884885868236	-0.48353714945228293
0.0019984541510090904	0.5342580133543647	-0.4862486743770178	0.4657419866456353	0.4862486743770178	0.4657419866456353	0.4862486743770178	0.5342580133543647	-0.4862486743770178
0.0021218177238201135	0.5056161960818824	-0.48734145722406286	0.49438380391811765	0.48734145722406286	0.49438380391811765	0.48734145722406286	0.5056161960818824	-0.48734145722406286
0.002252796468132077	0.476949716587827	-0.48680054789535127	0.5230502834121731	0.48680054789535127	0.5230502834121731	0.48680054789535127	0.476949716587827	-0.48680054789535127
0.0023918604646638456	0.44844515516562017	-0.4846373285610424	0.5515548448343798	0.4846373285610424	0.5515548448343798	0.4846373285610424	0.44844515516562017	-0.4846373285610424
0.0025395088119813834	0.4202843621697558	-0.480888889543492	0.5797156378302443	0.480888889543492	0.5797156378302443	0.480888889543492	0.4202843621697558	-0.480888889543492
0.0026962714177549067	0.3926401238832506	-0.47561648509669696	0.6073598761167495	0.47561648509669696	0.6073598761167495	0.47561648509669696	0.3926401238832506	-0.47561648509669696
0.0028627109005894447	0.365672321321279	-0.46890318632290606	0.634327678678721	0.46890318632290606	0.634327678678721	0.46890318632290606	0.365672321321279	-0.46890318632290606
0.0030394246092544422	0.33952473447422843	-0.4608508898031574	0.6604752655257715	0.4608508898031574	0.6604752655257715	0.4608508898031574	0.33952473447422843	-0.4608508898031574
0.0032270467665594044	0.314322593331334	-0.4515768657547013	0.6856774066686661	0.4515768657547013	0.6856774066686661	0.4515768657547013	0.314322593331334	-0.4515768657547013
0.003426250745569887	0.29017092440456754	-0.4412100386848234	0.7098290755954324	0.4412100386848234	0.7098290755954324	0.4412100386848234	0.29017092440456754	-0.4412100386848234
0.003637751486333196	0.26715369201866207	-0.42988718828509126	0.7328463079813379	0.42988718828509126	0.7328463079813379	0.42988718828509126	0.26715369201866207	-0.42988718828509126
0.0038623080617873166	0.24533369071366043	-0.4177492414234328	0.7546663092863395	0.4177492414234328	0.7546663092863395	0.4177492414234328	0.24533369071366043	-0.4177492414234328
0.004100726402062135	0.2247531108099933	-0.40493780069521057	0.7752468891900067	0.40493780069521057	0.7752468891900067	0.40493780069521057	0.2247531108099933	-0.40493780069521057
0.004353862186950389	0.2054346744971557	-0.3915920242466537	0.7945653255028444	0.3915920242466537	0.7945653255028444	0.3915920242466537	0.2054346744971557	-0.3915920242466537
0.004622623916929439	0.18738322483690395	-0.3778459384025297	0.8126167751630959	0.3778459384025297	0.8126167751630959	0.3778459384025297	0.18738322483690395	-0.3778459384025297
0.004907976173755622	0.17058764426670783	-0.3638262315706177	0.8294123557332922	0.3638262315706177	0.8294123557332922	0.3638262315706177	0.17058764426670783	-0.3638262315706177
0.005210943082333509	0.15502298148950755	-0.34965054708862536	0.8449770185104926	0.34965054708862536	0.8449770185104926	0.34965054708862536	0.15502298148950755	-0.34965054708862536
0.005532611986284573	0.14065267460644146	-0.3354262657812723	0.8593473253935586	0.3354262657812723	0.8593473253935586	0.3354262657812723	0.14065267460644146	-0.3354262657812723
0.0058741373504068994	0.12743077230729585	-0.3212497471463278	0.8725692276927041	0.3212497471463278	0.8725692276927041	0.3212497471463278	0.12743077230729585	-0.3212497471463278
0.0062367449040317685	0.11530407209127251	-0.30720598188843207	0.8846959279087276	0.30720598188843207	0.8846959279087276	0.30720598188843207	0.11530407209127251	-0.30720598188843207
0.006621736040147555	0.10421411310853702	-0.29336859804420573	0.8957858868914629	0.29336859804420573	0.8957858868914629	0.29336859804420573	0.10421411310853702	-0.29336859804420573
0.00703049248607935	0.09409897974217651	-0.2798001578071997	0.9059010202578234	0.2798001578071997	0.9059010202578234	0.2798001578071997	0.09409897974217651	-0.2798001578071997
0.007464481262487288	0.08489488924347596	-0.2665526816303527	0.9151051107565241	0.2665526816303527	0.9151051107565241	0.2665526816303527	0.08489488924347596	-0.2665526816303527
0.00792525994848136	0.07653755170715539	-0.25366833930146765	0.9234624482928447	0.25366833930146765	0.9234624482928447	0.25366833930146765	0.07653755170715539	-0.25366833930146765
0.008414482271749119	0.06896330291691866	-0.24118025341459964	0.9310366970830813	0.24118025341459964	0.9310366970830813	0.24118025341459964	0.06896330291691866	-0.24118025341459964
0.008933904043759181	0.06211001993306864	-0.22911336799119694	0.9378899800669314	0.22911336799119694	0.9378899800669314	0.22911336799119694	0.06211001993306864	-0.22911336799119694
0.009485389461341805	0.05591783583401142	-0.21748534305288042	0.9440821641659887	0.21748534305288042	0.9440821641659887	0.21748534305288042	0.05591783583401142	-0.21748534305288042
0.010070917797263008	0.050329674057882315	-0.20630744399708809	0.9496703259421176	0.20630744399708809	0.9496703259421176	0.20630744399708809	0.050329674057882315	-0.20630744399708809
0.010692590503804267	0.045291624731778724	-0.19558540215176728	0.9547083752682212	0.19558540215176728	0.9547083752682212	0.19558540215176728	0.045291624731778724	-0.19558540215176728
0.011352638754842955	0.040753185685678	-0.18532022954477365	0.959246814314322	0.18532022954477365	0.959246814314322	0.18532022954477365	0.040753185685678	-0.18532022954477365
0.012053431453501117	0.03666738998372117	-0.1755089765398726	0.9633326100162788	0.1755089765398726	0.9633326100162788	0.1755089765398726	0.03666738998372117	-0.1755089765398726
0.01279748373410305	0.03299084018349126	-0.16614542551951392	0.9670091598165088	0.16614542551951392	0.9670091598165088	0.16614542551951392	0.03299084018349126	-0.16614542551951392
0.013587465988953749	0.029683667505952274	-0.15722071729097695	0.9703163324940477	0.15722071729097695	0.9703163324940477	0.15722071729097695	0.029683667505952274	-0.15722071729097695
0.014426213452336495	0.02670943193947336	-0.1487239094814278	0.9732905680605268	0.1487239094814278	0.9732905680605268	0.1487239094814278	0.02670943193947336	-0.1487239094814278
0.015316736376125392	0.024034977205135286	-0.14064246803275027	0.9759650227948647	0.14064246803275027	0.9759650227948647	0.14064246803275027	0.024034977205135286	-0.14064246803275027
0.016262230833533536	0.021630252594357594	-0.13296269418517764	0.9783697474056424	0.13296269418517764	0.9783697474056424	0.13296269418517764	0.021630252594357594	-0.13296269418517764
0.0172660901897711	0.019468112003021672	-0.1256700902171581	0.9805318879969784	0.1256700902171581	0.9805318879969784	0.1256700902171581	0.019468112003021672	-0.1256700902171581
0.018331917280781422	0.017524099023993423	-0.11874966782800098	0.9824759009760065	0.11874966782800098	0.9824759009760065	0.11874966782800098	0.017524099023993423	-0.11874966782800098
0.019463537343764315	0.01577622568142873	-0.11218620351201641	0.9842237743185711	0.11218620351201641	0.9842237743185711	0.11218620351201641	0.01577622568142873	-0.11218620351201641
0.020665011745894146	0.014204751237846768	-0.10596444563786306	0.9857952487621532	0.10596444563786306	0.9857952487621532	0.10596444563786306	0.014204751237846768	-0.10596444563786306
0.02194065256050484	0.012791966422665776	-0.10006927823510273	0.9872080335773342	0.10006927823510273	0.9872080335773342	0.10006927823510273	0.012791966422665776	-0.10006927823510273
0.023295038043055136	0.011521987378739877	-0.09448584669213689	0.9884780126212601	0.09448584669213689	0.9884780126212601	0.09448584669213689	0.011521987378739877	-0.09448584669213689
0.02473302906241829	0.010380562585727681	-0.08919965066044891	0.9896194374142724	0.08919965066044891	0.9896194374142724	0.08919965066044891	0.010380562585727681	-0.08919965066044891
0.026259786546465668	0.009354895005412594	-0.08419660941271065	0.9906451049945874	0.08419660941271065	0.9906451049945874	0.08419660941271065	0.009354895005412594	-0.08419660941271065
0.027880790004559123	0.008433480733671738	-0.07946310470095423	0.9915665192663283	0.07946310470095423	0.9915665192663283	0.07946310470095423	0.008433480733671738	-0.07946310470095423
0.029601857193425795	0.007605964575990566	-0.07498600580800266	0.9923940354240096	0.07498600580800266	0.9923940354240096	0.07498600580800266	0.007605964575990566	-0.07498600580800266
0.031429164996999326	0.0068630122266632385	-0.07075268100240466	0.9931369877733368	0.07075268100240466	0.9931369877733368	0.07075268100240466	0.0068630122266632385	-0.07075268100240466
0.03336927159516126	0.006196198154455737	-0.0667509990318333	0.9938038018455444	0.0667509990318333	0.9938038018455444	0.0667509990318333	0.006196198154455737	-0.0667509990318333
0.035429140000949814	0.005597907892161746	-0.06296932366837853	0.9944020921078383	0.06296932366837853	0.9944020921078383	0.06296932366837853	0.005597907892161746	-0.06296932366837853
0.03761616305070665	0.005061253189767651	-0.05939650369830468	0.9949387468102323	0.05939650369830468	0.9949387468102323	0.05939650369830468	0.005061253189767651	-0.05939650369830468
0.039938189936854634	0.004579998401736826	-0.05602186016911408	0.9954200015982632	0.05602186016911408	0.9954200015982632	0.05602186016911408	0.004579998401736826	-0.05602186016911408
0.04240355437852965	0.004148496509077907	-0.05283517219794203	0.9958515034909221	0.05283517219794203	0.9958515034909221	0.05283517219794203	0.004148496509077907	-0.05283517219794203
0.04502110453117167	0.003761633292628062	-0.049826662224479755	0.9962383667073718	0.049826662224479755	0.9962383667073718	0.049826662224479755	0.003761633292628062	-0.049826662224479755
0.047800234742419935	0.0034147783420178887	-0.04698698126397423	0.9965852216579821	0.04698698126397423	0.9965852216579821	0.04698698126397423	0.0034147783420178887	-0.04698698126397423
