!Murata Part Number: GRM033R60J225ME15
!These Parameters are Measured in Series Mode Connection
!       o--ll--o
!Port1            Port2
!       o------o
!Operation Temp=25[degC], DC Bias Voltage=0[V]
!Freq. Start=100[Hz] Stop=6[GHz], 401[Steps]
!Data Generated on Nov 6, 2017
# Hz S RI R 50
!Freq.(Hz) S11(Real) S11(Imag) S21(Real) S21(Imag) S12(Real) S12(Imag) S22(Real) S22(Imag)
100.0 0.9878889627744194 -0.10303814949797144 0.012111037225580618 0.10303814949797144 0.012111037225580618 0.10303814949797144 0.9878889627744194 -0.10303814949797144
104.57921513303334 0.9868461886327258 -0.1076006944553323 0.013153811367274284 0.1076006944553323 0.013153811367274284 0.1076006944553323 0.9868461886327258 -0.1076006944553323
109.3681223784127 0.9857111004759391 -0.11235427576528874 0.01428889952406091 0.11235427576528874 0.01428889952406091 0.11235427576528874 0.9857111004759391 -0.11235427576528874
114.3763239890794 0.9844757518040446 -0.11730525255259806 0.015524248195955387 0.11730525255259806 0.015524248195955387 0.11730525255259806 0.9844757518040446 -0.11730525255259806
119.61386192579457 0.9831315741233636 -0.12245998016982348 0.01686842587663633 0.12245998016982348 0.01686842587663633 0.12245998016982348 0.9831315741233636 -0.12245998016982348
125.09123799230618 0.9816693358672178 -0.12782477681103446 0.018330664132782226 0.12782477681103446 0.018330664132782226 0.12782477681103446 0.9816693358672178 -0.12782477681103446
130.8194348925486 0.9800790996940463 -0.13340588492400846 0.019920900305953712 0.13340588492400846 0.019920900305953712 0.13340588492400846 0.9800790996940463 -0.13340588492400846
136.8099382520969 0.9783501783325869 -0.1392094267719421 0.02164982166741313 0.1392094267719421 0.02164982166741313 0.1392094267719421 0.9783501783325869 -0.1392094267719421
143.0747596480305 0.9764710892210547 -0.14524135342192854 0.023528910778945204 0.14524135342192854 0.023528910778945204 0.14524135342192854 0.9764710892210547 -0.14524135342192854
149.6264606933842 0.9744295082865082 -0.15150738636098532 0.025570491713491735 0.15150738636098532 0.025570491713491735 0.15150738636098532 0.9744295082865082 -0.15150738636098532
156.47817822447783 0.9722122233359236 -0.15801295086453498 0.027787776664076353 0.15801295086453498 0.027787776664076353 0.15801295086453498 0.9722122233359236 -0.15801295086453498
163.643650641628 0.9698050876860098 -0.16476310017167778 0.030194912313990303 0.16476310017167778 0.030194912313990303 0.16476310017167778 0.9698050876860098 -0.16476310017167778
171.13724545605763 0.9671929748481544 -0.1717624294625711 0.03280702515184555 0.1717624294625711 0.03280702515184555 0.1717624294625711 0.9671929748481544 -0.1717624294625711
178.97398809823787 0.9643597353109733 -0.17901497859365686 0.03564026468902666 0.17901497859365686 0.03564026468902666 0.17901497859365686 0.9643597353109733 -0.17901497859365686
187.1695920454257 0.9612881567272903 -0.18652412253581643 0.03871184327270956 0.18652412253581643 0.03871184327270956 0.18652412253581643 0.9612881567272903 -0.18652412253581643
195.74049032880657 0.957959929114798 -0.19429244848979874 0.04204007088520192 0.19429244848979874 0.04204007088520192 0.19429244848979874 0.957959929114798 -0.19429244848979874
204.70386848341695 0.9543556170175734 -0.2023216187346478 0.04564438298242651 0.2023216187346478 0.04564438298242651 0.2023216187346478 0.9543556170175734 -0.2023216187346478
214.0776990069143 0.9504546409437817 -0.21061221841140162 0.049545359056218256 0.21061221841140162 0.049545359056218256 0.21061221841140162 0.9504546409437817 -0.21061221841140162
223.88077739628844 0.9462352707847798 -0.21916358766941585 0.05376472921522013 0.21916358766941585 0.05376472921522013 0.21916358766941585 0.9462352707847798 -0.21916358766941585
234.132759834772 0.9416746343204928 -0.22797363791936323 0.05832536567950718 0.22797363791936323 0.05832536567950718 0.22797363791936323 0.9416746343204928 -0.22797363791936323
244.85420260451448 0.936748744309657 -0.237038652357433 0.0632512556903429 0.237038652357433 0.0632512556903429 0.237038652357433 0.936748744309657 -0.237038652357433
256.06660330404856 0.9314325480317528 -0.24635307145995647 0.0685674519682471 0.24635307145995647 0.0685674519682471 0.24635307145995647 0.9314325480317528 -0.24635307145995647
267.792443953192 0.9257000034666292 -0.2559092648046175 0.07429999653337095 0.2559092648046175 0.07429999653337095 0.2559092648046175 0.9257000034666292 -0.2559092648046175
280.0552360718164 0.9195241865404277 -0.26569729135818465 0.08047581345957229 0.26569729135818465 0.08047581345957229 0.26569729135818465 0.9195241865404277 -0.26569729135818465
292.87956782286926 0.9128774340009139 -0.27570465128156746 0.0871225659990861 0.27570465128156746 0.0871225659990861 0.27570465128156746 0.9128774340009139 -0.27570465128156746
306.2911533141767 0.9057315264763779 -0.28591603333549603 0.09426847352362214 0.28591603333549603 0.09426847352362214 0.28591603333549603 0.9057315264763779 -0.28591603333549603
320.3168841578819 0.8980579160810878 -0.29631306311166156 0.10194208391891235 0.29631306311166156 0.10194208391891235 0.29631306311166156 0.8980579160810878 -0.29631306311166156
334.9848833909005 0.8898280025153278 -0.3068740585430925 0.11017199748467217 0.3068740585430925 0.11017199748467217 0.3068740585430925 0.8898280025153278 -0.3068740585430925
350.32456186451077 0.8810134609265 -0.31757380043115274 0.11898653907349996 0.31757380043115274 0.11898653907349996 0.31757380043115274 0.8810134609265 -0.31757380043115274
366.36667721614316 0.8715866238075496 -0.32838332701877937 0.12841337619245044 0.32838332701877937 0.12841337619245044 0.32838332701877937 0.8715866238075496 -0.32838332701877937
383.1433955416162 0.8615209178721872 -0.3392697628789966 0.1384790821278128 0.3392697628789966 0.1384790821278128 0.3392697628789966 0.8615209178721872 -0.3392697628789966
400.68835589147574 0.8507913551336285 -0.3501961934959694 0.1492086448663715 0.3501961934959694 0.1492086448663715 0.3501961934959694 0.8507913551336285 -0.3501961934959694
419.03673772076064 0.8393750753098638 -0.36112159779714986 0.1606249246901363 0.36112159779714986 0.1606249246901363 0.36112159779714986 0.8393750753098638 -0.36112159779714986
438.225331427439 0.8272519341899783 -0.37200085143748807 0.17274806581002175 0.37200085143748807 0.17274806581002175 0.37200085143748807 0.8272519341899783 -0.37200085143748807
458.2926121209498 0.8144051297577246 -0.38278481371573675 0.18559487024227536 0.38278481371573675 0.18559487024227536 0.38278481371573675 0.8144051297577246 -0.38278481371573675
479.2788167687661 0.8008218547516468 -0.39342051048799875 0.19917814524835328 0.39342051048799875 0.19917814524835328 0.39342051048799875 0.8008218547516468 -0.39342051048799875
501.22602487566456 0.7864939610595766 -0.4038514242080888 0.21350603894042333 0.4038514242080888 0.21350603894042333 0.4038514242080888 0.7864939610595766 -0.4038514242080888
524.1782428574726 0.7714186180599817 -0.4140179001583158 0.22858138194001834 0.4140179001583158 0.22858138194001834 0.4140179001583158 0.7714186180599817 -0.4140179001583158
548.1814922784702 0.7555989439410322 -0.4238576749614762 0.24440105605896778 0.4238576749614762 0.24440105605896778 0.4238576749614762 0.7555989439410322 -0.4238576749614762
573.2839021293739 0.7390445863993191 -0.43330652956004995 0.260955413600681 0.43330652956004995 0.260955413600681 0.43330652956004995 0.7390445863993191 -0.43330652956004995
599.5358053309263 0.7217722272220795 -0.4422990640559324 0.2782277727779204 0.4422990640559324 0.2782277727779204 0.4422990640559324 0.7217722272220795 -0.4422990640559324
626.9898396565933 0.7038059843773655 -0.4507695862524536 0.2961940156226343 0.4507695862524536 0.2961940156226343 0.4507695862524536 0.7038059843773655 -0.4507695862524536
655.7010532767296 0.6851776856464953 -0.45865309965352197 0.3148223143535047 0.45865309965352197 0.3148223143535047 0.45865309965352197 0.6851776856464953 -0.45865309965352197
685.7270151358366 0.6659269897536158 -0.46588637037187297 0.33407301024638425 0.46588637037187297 0.33407301024638425 0.46588637037187297 0.6659269897536158 -0.46588637037187297
717.1279303842347 0.6461013345152717 -0.47240904628435837 0.35389866548472826 0.47240904628435837 0.35389866548472826 0.47240904628435837 0.6461013345152717 -0.47240904628435837
749.9667610955984 0.6257556967681503 -0.47816479631342546 0.3742443032318498 0.47816479631342546 0.3742443032318498 0.47816479631342546 0.6257556967681503 -0.47816479631342546
784.3093525124082 0.6049521556120002 -0.48310243340167053 0.39504784438799984 0.48310243340167053 0.39504784438799984 0.48310243340167053 0.6049521556120002 -0.48310243340167053
820.2245650724522 0.5837592585467692 -0.48717698204884036 0.4162407414532306 0.48717698204884036 0.4162407414532306 0.48717698204884036 0.5837592585467692 -0.48717698204884036
857.7844124811068 0.5622511989552098 -0.4903506505891088 0.4377488010447901 0.4903506505891088 0.4377488010447901 0.4903506505891088 0.5622511989552098 -0.4903506505891088
897.0642061062428 0.5405068225228843 -0.49259366996157505 0.45949317747711566 0.49259366996157505 0.45949317747711566 0.49259366996157505 0.5405068225228843 -0.49259366996157505
938.1427059852851 0.5186084889503726 -0.4938849646540944 0.48139151104962746 0.4938849646540944 0.48139151104962746 0.4938849646540944 0.5186084889503726 -0.4938849646540944
981.102278747212 0.496640823027206 -0.4942126276615481 0.5033591769727942 0.4942126276615481 0.5033591769727942 0.4942126276615481 0.496640823027206 -0.4942126276615481
1026.0290627661395 0.4746893951793121 -0.49357417936733955 0.525310604820688 0.49357417936733955 0.525310604820688 0.49357417936733955 0.4746893951793121 -0.49357417936733955
1073.0131408776467 0.4528393754635506 -0.49197659971583 0.5471606245364495 0.49197659971583 0.5471606245364495 0.49197659971583 0.4528393754635506 -0.49197659971583
1122.1487210041523 0.4311742063327415 -0.4894361332357523 0.5688257936672586 0.4894361332357523 0.5688257936672586 0.4894361332357523 0.4311742063327415 -0.4894361332357523
1173.5343250515148 0.40977433821802306 -0.48597787666582787 0.5902256617819768 0.48597787666582787 0.5902256617819768 0.48597787666582787 0.40977433821802306 -0.48597787666582787
1227.2729864556143 0.38871606818958643 -0.48163516838949916 0.6112839318104136 0.48163516838949916 0.6112839318104136 0.48163516838949916 0.38871606818958643 -0.48163516838949916
1283.4724567750195 0.36807051599641893 -0.47644880694873154 0.6319294840035812 0.47644880694873154 0.6319294840035812 0.47644880694873154 0.36807051599641893 -0.47644880694873154
1342.245421743976 0.3479027641621506 -0.4704661320635694 0.6520972358378494 0.4704661320635694 0.6520972358378494 0.4704661320635694 0.3479027641621506 -0.4704661320635694
1403.7097272189235 0.32827118015525864 -0.46374000551073596 0.6717288198447414 0.46374000551073596 0.6717288198447414 0.46374000551073596 0.32827118015525864 -0.46374000551073596
1467.9886154715937 0.309226929630945 -0.4563277307982653 0.690773070369055 0.4563277307982653 0.690773070369055 0.4563277307982653 0.309226929630945 -0.4563277307982653
1535.2109723024755 0.2908136810062191 -0.44828994990667154 0.7091863189937808 0.44828994990667154 0.7091863189937808 0.44828994990667154 0.2908136810062191 -0.44828994990667154
1605.5115854701387 0.27306749373892825 -0.4396895527199245 0.7269325062610716 0.4396895527199245 0.7269325062610716 0.4396895527199245 0.27306749373892825 -0.4396895527199245
1679.0314149545911 0.25601687606308504 -0.4305906305415478 0.7439831239369151 0.4305906305415478 0.7439831239369151 0.4305906305415478 0.25601687606308504 -0.4305906305415478
1755.9178755965756 0.23968299285764835 -0.4210574997580263 0.7603170071423516 0.4210574997580263 0.7603170071423516 0.4210574997580263 0.23968299285764835 -0.4210574997580263
1836.3251326795319 0.2240800009046507 -0.4111538157687701 0.7759199990953495 0.4111538157687701 0.7759199990953495 0.4111538157687701 0.2240800009046507 -0.4111538157687701
1920.4144110468878 0.20921548699055909 -0.4009417912149718 0.7907845130094411 0.4009417912149718 0.7907845130094411 0.4009417912149718 0.20921548699055909 -0.4009417912149718
2008.3543183745 0.19509098396984398 -0.3904815267075458 0.8049090160301561 0.3904815267075458 0.8049090160301561 0.3904815267075458 0.19509098396984398 -0.3904815267075458
2100.321183246434 0.18170254080739046 -0.37983045698479445 0.8182974591926097 0.37983045698479445 0.8182974591926097 0.37983045698479445 0.18170254080739046 -0.37983045698479445
2196.4994087119585 0.16904132446673967 -0.3690429109311043 0.8309586755332603 0.3690429109311043 0.8309586755332603 0.3690429109311043 0.16904132446673967 -0.3690429109311043
2297.0818420326846 0.15709423402264547 -0.35816978026882845 0.8429057659773546 0.35816978026882845 0.8429057659773546 0.35816978026882845 0.15709423402264547 -0.35816978026882845
2402.270161361206 0.145844510273453 -0.3472582890211152 0.854155489726547 0.3472582890211152 0.854155489726547 0.3472582890211152 0.145844510273453 -0.3472582890211152
2512.2752801266033 0.13527232717102383 -0.336351853990532 0.8647276728289761 0.336351853990532 0.8647276728289761 0.336351853990532 0.13527232717102383 -0.336351853990532
2627.3177699376165 0.12535535437964712 -0.3254900254159272 0.874644645620353 0.3254900254159272 0.874644645620353 0.3254900254159272 0.12535535437964712 -0.3254900254159272
2747.6283028514745 0.11606928307722299 -0.31470849653872934 0.883930716922777 0.31470849653872934 0.883930716922777 0.31470849653872934 0.11606928307722299 -0.31470849653872934
2873.4481138951564 0.1073883096271349 -0.3040391708991249 0.8926116903728653 0.3040391708991249 0.8926116903728653 0.3040391708991249 0.1073883096271349 -0.3040391708991249
3005.0294847665045 0.09928557392521158 -0.2935102766633898 0.9007144260747885 0.2935102766633898 0.9007144260747885 0.2935102766633898 0.09928557392521158 -0.2935102766633898
3142.6362496850466 0.09173355104504495 -0.28314651803830887 0.908266448954955 0.28314651803830887 0.908266448954955 0.28314651803830887 0.09173355104504495 -0.28314651803830887
3286.544324406816 0.08470439627426996 -0.27296925475576206 0.9152956037257299 0.27296925475576206 0.9152956037257299 0.27296925475576206 0.08470439627426996 -0.27296925475576206
3437.0422594639017 0.07817024477920312 -0.26299670162766275 0.9218297552207969 0.26299670162766275 0.9218297552207969 0.26299670162766275 0.07817024477920312 -0.26299670162766275
3594.431818738024 0.07210346799066145 -0.25324414121461863 0.9278965320093383 0.25324414121461863 0.9278965320093383 0.25324414121461863 0.07210346799066145 -0.25324414121461863
3759.0285845282415 0.06647688940966916 -0.2437241436741128 0.9335231105903308 0.2437241436741128 0.9335231105903308 0.2437241436741128 0.06647688940966916 -0.2437241436741128
3931.162590326006 0.061263962928492934 -0.23444678882335807 0.938736037071507 0.23444678882335807 0.938736037071507 0.23444678882335807 0.061263962928492934 -0.23444678882335807
4111.17898256636 0.0564389169883374 -0.22541988634774218 0.9435610830116626 0.22541988634774218 0.9435610830116626 0.22541988634774218 0.0564389169883374 -0.22541988634774218
4299.438712682125 0.05197686798472022 -0.21664919089645682 0.9480231320152798 0.21664919089645682 0.9480231320152798 0.21664919089645682 0.05197686798472022 -0.21664919089645682
4496.31926084876 0.04785390631536312 -0.208138609527742 0.952146093684637 0.208138609527742 0.952146093684637 0.208138609527742 0.04785390631536312 -0.208138609527742
4702.215392871039 0.04404715836923592 -0.19989039959713314 0.9559528416307642 0.19989039959713314 0.9559528416307642 0.19989039959713314 0.04404715836923592 -0.19989039959713314
4917.539951729213 0.040534827600785465 -0.19190535572632247 0.9594651723992145 0.19190535572632247 0.9594651723992145 0.19190535572632247 0.040534827600785465 -0.19190535572632247
5142.724685371758 0.037296217638165034 -0.1841829849529503 0.9627037823618351 0.1841829849529503 0.9627037823618351 0.1841829849529503 0.037296217638165034 -0.1841829849529503
5378.221112414543 0.03431174015286894 -0.17672166954920254 0.9656882598471312 0.17672166954920254 0.9656882598471312 0.17672166954920254 0.03431174015286894 -0.17672166954920254
5624.501427482224 0.03156290998212525 -0.16951881731653795 0.9684370900178748 0.16951881731653795 0.9684370900178748 0.16951881731653795 0.03156290998212525 -0.16951881731653795
5882.059448007167 0.029032329753801357 -0.16257099942238007 0.9709676702461987 0.16257099942238007 0.9709676702461987 0.16257099942238007 0.029032329753801357 -0.16257099942238007
6151.41160438433 0.026703666023482984 -0.1558740760493343 0.9732963339765173 0.1558740760493343 0.9732963339765173 0.1558740760493343 0.026703666023482984 -0.1558740760493343
6433.097975467465 0.024561618700121798 -0.1494233102852535 0.975438381299878 0.1494233102852535 0.975438381299878 0.1494233102852535 0.024561618700121798 -0.1494233102852535
6727.683371482931 0.022591885314114525 -0.14321347079975685 0.9774081146858854 0.14321347079975685 0.9774081146858854 0.14321347079975685 0.022591885314114525 -0.14321347079975685
7035.758466532445 0.020781121472596656 -0.13723892393555362 0.9792188785274034 0.13723892393555362 0.9792188785274034 0.13723892393555362 0.020781121472596656 -0.13723892393555362
7357.940982955574 0.01911689865287946 -0.13149371589660677 0.9808831013471204 0.13149371589660677 0.9808831013471204 0.13149371589660677 0.01911689865287946 -0.13149371589660677
7694.876929926739 0.0175876603073265 -0.1259716457446659 0.9824123396926735 0.1259716457446659 0.9824123396926735 0.1259716457446659 0.0175876603073265 -0.1259716457446659
8047.241898770236 0.016182677091963377 -0.1206663299253635 0.9838173229080366 0.1206663299253635 0.9838173229080366 0.1206663299253635 0.016182677091963377 -0.1206663299253635
8415.742417590522 0.0148920018866912 -0.1155712590387169 0.9851079981133086 0.1155712590387169 0.9851079981133086 0.1155712590387169 0.0148920018866912 -0.1155712590387169
8801.117367933934 0.01370642514675442 -0.11067984754982196 0.9862935748532454 0.11067984754982196 0.9862935748532454 0.11067984754982196 0.01370642514675442 -0.11067984754982196
9204.139466322391 0.01261743101249266 -0.10598547710663145 0.9873825689875074 0.10598547710663145 0.9873825689875074 0.10598547710663145 0.01261743101249266 -0.10598547710663145
9625.61681362972 0.011617154506634527 -0.1014815340954524 0.9883828454933654 0.1014815340954524 0.9883828454933654 0.1014815340954524 0.011617154506634527 -0.1014815340954524
10066.394515407255 0.010698340064629795 -0.09716144202329594 0.98930165993537 0.09716144202329594 0.98930165993537 0.09716144202329594 0.010698340064629795 -0.09716144202329594
10527.356376407623 0.00985430157287201 -0.09301868927131465 0.9901456984271282 0.09301868927131465 0.9901456984271282 0.09301868927131465 0.00985430157287201 -0.09301868927131465
11009.426672704432 0.009078884031212157 -0.08904685271689261 0.9909211159687878 0.08904685271689261 0.9909211159687878 0.08904685271689261 0.009078884031212157 -0.08904685271689261
11513.572004961125 0.008366426908942596 -0.085239617674926 0.9916335730910575 0.085239617674926 0.9916335730910575 0.085239617674926 0.008366426908942596 -0.085239617674926
12040.803236564994 0.007711729226435642 -0.08159079456272753 0.9922882707735643 0.08159079456272753 0.9922882707735643 0.08159079456272753 0.007711729226435642 -0.08159079456272753
12592.177520512549 0.0071100163667875025 -0.07809433264891372 0.9928899836332125 0.07809433264891372 0.9928899836332125 0.07809433264891372 0.0071100163667875025 -0.07809433264891372
13168.800419110281 0.006556908602008734 -0.07474433120555704 0.9934430913979911 0.07474433120555704 0.9934430913979911 0.07474433120555704 0.006556908602008734 -0.07474433120555704
13771.82812074114 0.006048391305300282 -0.0715350483455872 0.9939516086946996 0.0715350483455872 0.9939516086946996 0.0715350483455872 0.006048391305300282 -0.0715350483455872
