!Murata Part Number: GRM033C71C104KE14
!These Parameters are Measured in Series Mode Connection
!       o--ll--o
!Port1            Port2
!       o------o
!Operation Temp=25[degC], DC Bias Voltage=0[V]
!Freq. Start=100[Hz] Stop=6[GHz], 401[Steps]
!Data Generated on Nov 6, 2018
# Hz S RI R 50
!Freq.(Hz) S11(Real) S11(Imag) S21(Real) S21(Imag) S12(Real) S12(Imag) S22(Real) S22(Imag)
100.0 0.9999063046828747 -0.004787445444928676 9.369531712527895E-5 0.004787445444928676 9.369531712527895E-5 0.004787445444928676 0.9999063046828747 -0.004787445444928676
104.57921513303334 0.9999009911062648 -0.005004579349345919 9.900889373518823E-5 0.005004579349345919 9.900889373518823E-5 0.005004579349345919 0.9999009911062648 -0.005004579349345919
109.3681223784127 0.9998953074608237 -0.005231571537523227 1.0469253917623952E-4 0.005231571537523227 1.0469253917623952E-4 0.005231571537523227 0.9998953074608237 -0.005231571537523227
114.3763239890794 0.9998892242539291 -0.005468863661296816 1.1077574607083603E-4 0.005468863661296816 1.1077574607083603E-4 0.005468863661296816 0.9998892242539291 -0.005468863661296816
119.61386192579457 0.9998827104600758 -0.00571691667824516 1.1728953992413087E-4 0.00571691667824516 1.1728953992413087E-4 0.00571691667824516 0.9998827104600758 -0.00571691667824516
125.09123799230618 0.9998757334946428 -0.005976211793203713 1.242665053571842E-4 0.005976211793203713 1.242665053571842E-4 0.005976211793203713 0.9998757334946428 -0.005976211793203713
130.8194348925486 0.9998682591755541 -0.006247251462874784 1.3174082444588554E-4 0.006247251462874784 1.3174082444588554E-4 0.006247251462874784 0.9998682591755541 -0.006247251462874784
136.8099382520969 0.9998602516682663 -0.00653056046755505 1.3974833173362695E-4 0.00653056046755505 1.3974833173362695E-4 0.00653056046755505 0.9998602516682663 -0.00653056046755505
143.0747596480305 0.9998516734086191 -0.00682668705372191 1.483265913809258E-4 0.00682668705372191 1.483265913809258E-4 0.00682668705372191 0.9998516734086191 -0.00682668705372191
149.6264606933842 0.9998424849971793 -0.007136204150721535 1.5751500282066585E-4 0.007136204150721535 1.5751500282066585E-4 0.007136204150721535 0.9998424849971793 -0.007136204150721535
156.47817822447783 0.9998326450578542 -0.007459710664067532 1.67354942145943E-4 0.007459710664067532 1.67354942145943E-4 0.007459710664067532 0.9998326450578542 -0.007459710664067532
163.643650641628 0.9998221100527982 -0.007797832846886464 1.7788994720171485E-4 0.007797832846886464 1.7788994720171485E-4 0.007797832846886464 0.9998221100527982 -0.007797832846886464
171.13724545605763 0.9998108340450911 -0.008151225749851216 1.891659549089042E-4 0.008151225749851216 1.891659549089042E-4 0.008151225749851216 0.9998108340450911 -0.008151225749851216
178.97398809823787 0.9997987684003524 -0.008520574748564273 2.0123159964755493E-4 0.008520574748564273 2.0123159964755493E-4 0.008520574748564273 0.9997987684003524 -0.008520574748564273
187.1695920454257 0.9997858614185015 -0.008906597145853705 2.1413858149850077E-4 0.008906597145853705 2.1413858149850077E-4 0.008906597145853705 0.9997858614185015 -0.008906597145853705
195.74049032880657 0.9997720578872593 -0.00931004384491131 2.2794211274067958E-4 0.00931004384491131 2.2794211274067958E-4 0.00931004384491131 0.9997720578872593 -0.00931004384491131
204.70386848341695 0.9997572985498022 -0.00973170108774218 2.4270145019771275E-4 0.00973170108774218 2.4270145019771275E-4 0.00973170108774218 0.9997572985498022 -0.00973170108774218
214.0776990069143 0.9997415194801715 -0.010172392252125954 2.584805198284215E-4 0.010172392252125954 2.584805198284215E-4 0.010172392252125954 0.9997415194801715 -0.010172392252125954
223.88077739628844 0.9997246513615954 -0.010632979699335254 2.7534863840459386E-4 0.010632979699335254 2.7534863840459386E-4 0.010632979699335254 0.9997246513615954 -0.010632979699335254
234.132759834772 0.9997066186647023 -0.011114366664326225 2.9338133529760387E-4 0.011114366664326225 2.9338133529760387E-4 0.011114366664326225 0.9997066186647023 -0.011114366664326225
244.85420260451448 0.999687338724578 -0.011617499180099149 3.1266127542199835E-4 0.011617499180099149 3.1266127542199835E-4 0.011617499180099149 0.999687338724578 -0.011617499180099149
256.06660330404856 0.9996667207175939 -0.012143368028474946 3.3327928240612514E-4 0.012143368028474946 3.3327928240612514E-4 0.012143368028474946 0.9996667207175939 -0.012143368028474946
267.792443953192 0.9996446645407592 -0.012693010710652068 3.553354592408685E-4 0.012693010710652068 3.553354592408685E-4 0.012693010710652068 0.9996446645407592 -0.012693010710652068
280.0552360718164 0.9996210595978385 -0.013267513432553371 3.78940402161572E-4 0.013267513432553371 3.78940402161572E-4 0.013267513432553371 0.9996210595978385 -0.013267513432553371
292.87956782286926 0.9995957834975079 -0.013868013102047865 4.0421650249209984E-4 0.013868013102047865 4.0421650249209984E-4 0.013868013102047865 0.9995957834975079 -0.013868013102047865
306.2911533141767 0.9995687006692631 -0.014495699337501671 4.312993307369444E-4 0.014495699337501671 4.312993307369444E-4 0.014495699337501671 0.9995687006692631 -0.014495699337501671
320.3168841578819 0.9995396609025867 -0.015151816489607122 4.603390974134166E-4 0.015151816489607122 4.603390974134166E-4 0.015151816489607122 0.9995396609025867 -0.015151816489607122
334.9848833909005 0.9995084978140172 -0.015837665680881064 4.91502185982815E-4 0.015837665680881064 4.91502185982815E-4 0.015837665680881064 0.9995084978140172 -0.015837665680881064
350.32456186451077 0.9994750272452771 -0.01655460686944105 5.249727547228688E-4 0.01655460686944105 5.249727547228688E-4 0.01655460686944105 0.9994750272452771 -0.01655460686944105
366.36667721614316 0.9994390455936101 -0.01730406094551468 5.609544063899721E-4 0.01730406094551468 5.609544063899721E-4 0.01730406094551468 0.9994390455936101 -0.01730406094551468
383.1433955416162 0.9994003280730821 -0.01808751187050904 5.996719269178789E-4 0.01808751187050904 5.996719269178789E-4 0.01808751187050904 0.9994003280730821 -0.01808751187050904
400.68835589147574 0.9993586269029623 -0.01890650886930744 6.413730970377147E-4 0.01890650886930744 6.413730970377147E-4 0.01890650886930744 0.9993586269029623 -0.01890650886930744
419.03673772076064 0.9993136694165717 -0.019762668686769194 6.86330583428312E-4 0.019762668686769194 6.86330583428312E-4 0.019762668686769194 0.9993136694165717 -0.019762668686769194
438.225331427439 0.999265156081323 -0.02065767791923046 7.348439186768937E-4 0.02065767791923046 7.348439186768937E-4 0.02065767791923046 0.999265156081323 -0.02065767791923046
458.2926121209498 0.9992127584181606 -0.02159329543123065 7.872415818393827E-4 0.02159329543123065 7.872415818393827E-4 0.02159329543123065 0.9992127584181606 -0.02159329543123065
479.2788167687661 0.999156116806331 -0.022571354866833364 8.438831936689665E-4 0.022571354866833364 8.438831936689665E-4 0.022571354866833364 0.999156116806331 -0.022571354866833364
501.22602487566456 0.9990948381573909 -0.023593767263902905 9.051618426092357E-4 0.023593767263902905 9.051618426092357E-4 0.023593767263902905 0.9990948381573909 -0.023593767263902905
524.1782428574726 0.9990284934405506 -0.024662523778663473 9.71506559449489E-4 0.024662523778663473 9.71506559449489E-4 0.024662523778663473 0.9990284934405506 -0.024662523778663473
548.1814922784702 0.9989566150398169 -0.02577969852691882 0.0010433849601832327 0.02577969852691882 0.0010433849601832327 0.02577969852691882 0.9989566150398169 -0.02577969852691882
573.2839021293739 0.998878693921798 -0.02694745154752931 0.001121306078201973 0.02694745154752931 0.001121306078201973 0.02694745154752931 0.998878693921798 -0.02694745154752931
599.5358053309263 0.9987941765913713 -0.02816803189317969 0.0012058234086287341 0.02816803189317969 0.0012058234086287341 0.02816803189317969 0.9987941765913713 -0.02816803189317969
626.9898396565933 0.9987024618104986 -0.029443780853130125 0.001297538189501419 0.029443780853130125 0.001297538189501419 0.029443780853130125 0.9987024618104986 -0.029443780853130125
655.7010532767296 0.9986028970531844 -0.030777135312487044 0.0013971029468157587 0.030777135312487044 0.0013971029468157587 0.030777135312487044 0.9986028970531844 -0.030777135312487044
685.7270151358366 0.9984947746667101 -0.03217063125247085 0.0015052253332899855 0.03217063125247085 0.0015052253332899855 0.03217063125247085 0.9984947746667101 -0.03217063125247085
717.1279303842347 0.9983773277057346 -0.03362690739606163 0.001622672294265431 0.03362690739606163 0.001622672294265431 0.03362690739606163 0.9983773277057346 -0.03362690739606163
749.9667610955984 0.9982497254014673 -0.03514870900308373 0.001750274598532628 0.03514870900308373 0.001750274598532628 0.03514870900308373 0.9982497254014673 -0.03514870900308373
784.3093525124082 0.9981110682228388 -0.03673889181802074 0.0018889317771612609 0.03673889181802074 0.0018889317771612609 0.03673889181802074 0.9981110682228388 -0.03673889181802074
820.2245650724522 0.9979603824803434 -0.038400426172358 0.0020396175196566576 0.038400426172358 0.0020396175196566576 0.038400426172358 0.9979603824803434 -0.038400426172358
857.7844124811068 0.9977966144160517 -0.04013640124072472 0.0022033855839482842 0.04013640124072472 0.0022033855839482842 0.04013640124072472 0.9977966144160517 -0.04013640124072472
897.0642061062428 0.9976186237152547 -0.04195002944622177 0.00238137628474532 0.04195002944622177 0.00238137628474532 0.04195002944622177 0.9976186237152547 -0.04195002944622177
938.1427059852851 0.9974251763665071 -0.043844651004732116 0.0025748236334929503 0.043844651004732116 0.0025748236334929503 0.043844651004732116 0.9974251763665071 -0.043844651004732116
981.102278747212 0.9972149367877438 -0.045823738590395964 0.0027850632122562277 0.045823738590395964 0.0027850632122562277 0.045823738590395964 0.9972149367877438 -0.045823738590395964
1026.0290627661395 0.9969864591270294 -0.04789090209450135 0.003013540872970458 0.04789090209450135 0.003013540872970458 0.04789090209450135 0.9969864591270294 -0.04789090209450135
1073.0131408776467 0.9967381776378452 -0.05004989343758432 0.003261822362154803 0.05004989343758432 0.003261822362154803 0.05004989343758432 0.9967381776378452 -0.05004989343758432
1122.1487210041523 0.9964683960211694 -0.05230461137943665 0.0035316039788305226 0.05230461137943665 0.0035316039788305226 0.05230461137943665 0.9964683960211694 -0.05230461137943665
1173.5343250515148 0.9961752756205993 -0.05465910625401496 0.00382472437940074 0.05465910625401496 0.00382472437940074 0.05465910625401496 0.9961752756205993 -0.05465910625401496
1227.2729864556143 0.995856822353001 -0.05711758453612436 0.004143177646998914 0.05711758453612436 0.004143177646998914 0.05711758453612436 0.995856822353001 -0.05711758453612436
1283.4724567750195 0.9955108722563056 -0.05968441312457857 0.0044891277436943 0.05968441312457857 0.0044891277436943 0.05968441312457857 0.9955108722563056 -0.05968441312457857
1342.245421743976 0.9951350755385572 -0.062364123202862436 0.0048649244614426945 0.062364123202862436 0.0048649244614426945 0.062364123202862436 0.9951350755385572 -0.062364123202862436
1403.7097272189235 0.9947268790185704 -0.06516141351382658 0.005273120981429756 0.06516141351382658 0.005273120981429756 0.06516141351382658 0.9947268790185704 -0.06516141351382658
1467.9886154715937 0.9942835068586793 -0.06808115286041559 0.005716493141320642 0.06808115286041559 0.005716493141320642 0.06808115286041559 0.9942835068586793 -0.06808115286041559
1535.2109723024755 0.9938019395040032 -0.07112838162068211 0.006198060495996933 0.07112838162068211 0.006198060495996933 0.07112838162068211 0.9938019395040032 -0.07112838162068211
1605.5115854701387 0.9932788907600211 -0.07430831204310429 0.006721109239978929 0.07430831204310429 0.006721109239978929 0.07430831204310429 0.9932788907600211 -0.07430831204310429
1679.0314149545911 0.9927107829605178 -0.07762632706809675 0.007289217039482242 0.07762632706809675 0.007289217039482242 0.07762632706809675 0.9927107829605178 -0.07762632706809675
1755.9178755965756 0.9920937202003043 -0.08108797740390027 0.007906279799695748 0.08108797740390027 0.007906279799695748 0.08108797740390027 0.9920937202003043 -0.08108797740390027
1836.3251326795319 0.9914234596307763 -0.084698976569767 0.008576540369223729 0.084698976569767 0.008576540369223729 0.084698976569767 0.9914234596307763 -0.084698976569767
1920.4144110468878 0.99069538084051 -0.08846519360618131 0.009304619159489939 0.08846519360618131 0.009304619159489939 0.08846519360618131 0.99069538084051 -0.08846519360618131
2008.3543183745 0.9899044533671465 -0.09239264314008809 0.010095546632853407 0.09239264314008809 0.010095546632853407 0.09239264314008809 0.9899044533671465 -0.09239264314008809
2100.321183246434 0.9890452024104791 -0.09648747248179619 0.010954797589521007 0.09648747248179619 0.010954797589521007 0.09648747248179619 0.9890452024104791 -0.09648747248179619
2196.4994087119585 0.9881116728400688 -0.10075594541827142 0.011888327159931236 0.10075594541827142 0.011888327159931236 0.10075594541827142 0.9881116728400688 -0.10075594541827142
2297.0818420326846 0.9870973916144753 -0.1052044223538231 0.012902608385524648 0.1052044223538231 0.012902608385524648 0.1052044223538231 0.9870973916144753 -0.1052044223538231
2402.270161361206 0.9859953287543779 -0.10983933643274596 0.01400467124562225 0.10983933643274596 0.01400467124562225 0.10983933643274596 0.9859953287543779 -0.10983933643274596
2512.2752801266033 0.9847978570400109 -0.1146671652586658 0.015202142959989024 0.1146671652586658 0.015202142959989024 0.1146671652586658 0.9847978570400109 -0.1146671652586658
2627.3177699376165 0.9834967106362894 -0.11969439780193236 0.016503289363710576 0.11969439780193236 0.016503289363710576 0.11969439780193236 0.9834967106362894 -0.11969439780193236
2747.6283028514745 0.9820829428887919 -0.12492749605975637 0.017917057111208147 0.12492749605975637 0.017917057111208147 0.12492749605975637 0.9820829428887919 -0.12492749605975637
2873.4481138951564 0.9805468835825399 -0.13037285100480825 0.019453116417460028 0.13037285100480825 0.019453116417460028 0.13037285100480825 0.9805468835825399 -0.13037285100480825
3005.0294847665045 0.9788780960152034 -0.13603673232820823 0.02112190398479674 0.13603673232820823 0.02112190398479674 0.13603673232820823 0.9788780960152034 -0.13603673232820823
3142.6362496850466 0.977065334308759 -0.1419252314542792 0.022934665691240894 0.1419252314542792 0.022934665691240894 0.1419252314542792 0.977065334308759 -0.1419252314542792
3286.544324406816 0.9750965014701273 -0.14804419727963822 0.02490349852987272 0.14804419727963822 0.02490349852987272 0.14804419727963822 0.9750965014701273 -0.14804419727963822
3437.0422594639017 0.972958608812857 -0.15439916407106752 0.0270413911871429 0.15439916407106752 0.0270413911871429 0.15439916407106752 0.972958608812857 -0.15439916407106752
3594.431818738024 0.9706377374690913 -0.16099527094831764 0.029362262530908644 0.16099527094831764 0.029362262530908644 0.16099527094831764 0.9706377374690913 -0.16099527094831764
3759.0285845282415 0.9681190028537986 -0.16783717238297147 0.031880997146201503 0.16783717238297147 0.031880997146201503 0.16783717238297147 0.9681190028537986 -0.16783717238297147
3931.162590326006 0.9653865230912423 -0.1749289391662701 0.0346134769087578 0.1749289391662701 0.0346134769087578 0.1749289391662701 0.9653865230912423 -0.1749289391662701
4111.17898256636 0.9624233925759729 -0.18227394934107888 0.037576607424027166 0.18227394934107888 0.037576607424027166 0.18227394934107888 0.9624233925759729 -0.18227394934107888
4299.438712682125 0.9592116620160104 -0.18987476865972533 0.04078833798398962 0.18987476865972533 0.04078833798398962 0.18987476865972533 0.9592116620160104 -0.18987476865972533
4496.31926084876 0.9557323264926437 -0.1977330202242516 0.044267673507356296 0.1977330202242516 0.044267673507356296 0.1977330202242516 0.9557323264926437 -0.1977330202242516
4702.215392871039 0.9519653232672801 -0.20584924309287042 0.04803467673271996 0.20584924309287042 0.04803467673271996 0.20584924309287042 0.9519653232672801 -0.20584924309287042
4917.539951729213 0.9478895412684359 -0.21422273980059717 0.05211045873156416 0.21422273980059717 0.05211045873156416 0.21422273980059717 0.9478895412684359 -0.21422273980059717
5142.724685371758 0.9434828443980406 -0.22285141294811767 0.05651715560195925 0.22285141294811767 0.05651715560195925 0.22285141294811767 0.9434828443980406 -0.22285141294811767
5378.221112414543 0.938722111001688 -0.23173159126647905 0.06127788899831197 0.23173159126647905 0.06127788899831197 0.23173159126647905 0.938722111001688 -0.23173159126647905
5624.501427482224 0.9335832920470992 -0.2408578458724115 0.06641670795290079 0.2408578458724115 0.06641670795290079 0.2408578458724115 0.9335832920470992 -0.2408578458724115
5882.059448007167 0.9280414907420506 -0.2502227977970162 0.07195850925794933 0.2502227977970162 0.07195850925794933 0.2502227977970162 0.9280414907420506 -0.2502227977970162
6151.41160438433 0.9220710664882097 -0.2598169183069571 0.0779289335117903 0.2598169183069571 0.0779289335117903 0.2598169183069571 0.9220710664882097 -0.2598169183069571
6433.097975467465 0.9156457661985485 -0.2696283240503418 0.08435423380145148 0.2696283240503418 0.08435423380145148 0.2696283240503418 0.9156457661985485 -0.2696283240503418
6727.683371482931 0.908738886086996 -0.27964256965727313 0.091261113913004 0.27964256965727313 0.091261113913004 0.27964256965727313 0.908738886086996 -0.27964256965727313
7035.758466532445 0.9013234670484433 -0.2898424411144682 0.09867653295155665 0.2898424411144682 0.09867653295155665 0.2898424411144682 0.9013234670484433 -0.2898424411144682
7357.940982955574 0.893372526657879 -0.3002077540185462 0.10662747334212108 0.3002077540185462 0.10662747334212108 0.3002077540185462 0.893372526657879 -0.3002077540185462
7694.876929926739 0.8848593305954539 -0.3107151616926643 0.11514066940454608 0.3107151616926643 0.11514066940454608 0.3107151616926643 0.8848593305954539 -0.3107151616926643
8047.241898770236 0.8757577059093048 -0.3213379791173106 0.12424229409069529 0.3213379791173106 0.12424229409069529 0.3213379791173106 0.8757577059093048 -0.3213379791173106
8415.742417590522 0.8660423979140757 -0.3320460296579616 0.13395760208592425 0.3320460296579616 0.13395760208592425 0.3320460296579616 0.8660423979140757 -0.3320460296579616
8801.117367933934 0.855689471641203 -0.34280552263449465 0.14431052835879693 0.34280552263449465 0.14431052835879693 0.34280552263449465 0.855689471641203 -0.34280552263449465
9204.139466322391 0.8446767575589765 -0.35357897081533396 0.15532324244102336 0.35357897081533396 0.15532324244102336 0.35357897081533396 0.8446767575589765 -0.35357897081533396
9625.61681362972 0.832984339724807 -0.36432515785732633 0.167015660275193 0.36432515785732633 0.167015660275193 0.36432515785732633 0.832984339724807 -0.36432515785732633
10066.394515407255 0.8205950825923494 -0.37499916645137077 0.17940491740765066 0.37499916645137077 0.17940491740765066 0.37499916645137077 0.8205950825923494 -0.37499916645137077
10527.356376407623 0.8074951903694386 -0.38555247835356227 0.1925048096305614 0.38555247835356227 0.1925048096305614 0.38555247835356227 0.8074951903694386 -0.38555247835356227
11009.426672704432 0.7936747901405014 -0.3959331574450147 0.20632520985949873 0.3959331574450147 0.20632520985949873 0.3959331574450147 0.7936747901405014 -0.3959331574450147
11513.572004961125 0.7791285270041527 -0.40608612632580476 0.22087147299584722 0.40608612632580476 0.22087147299584722 0.40608612632580476 0.7791285270041527 -0.40608612632580476
12040.803236564994 0.7638561563590414 -0.41595354557035125 0.23614384364095864 0.41595354557035125 0.23614384364095864 0.41595354557035125 0.7638561563590414 -0.41595354557035125
