!Murata Part Number: GRM033R71C103KE14
!These Parameters are Measured in Series Mode Connection
!       o--ll--o
!Port1            Port2
!       o------o
!Operation Temp=25[degC], DC Bias Voltage=0[V]
!Freq. Start=100[Hz] Stop=6[GHz], 401[Steps]
!Data Generated on Nov 6, 2018
# Hz S RI R 50
!Freq.(Hz) S11(Real) S11(Imag) S21(Real) S21(Imag) S12(Real) S12(Imag) S22(Real) S22(Imag)
100.0 0.9999958655069671 -6.060719056938233E-4 4.134493032874904E-6 6.060719056938233E-4 4.134493032874904E-6 6.060719056938233E-4 0.9999958655069671 -6.060719056938233E-4
104.57921513303334 0.9999956835671094 -6.337136299842968E-4 4.31643289055185E-6 6.337136299842968E-4 4.31643289055185E-6 6.337136299842968E-4 0.9999956835671094 -6.337136299842968E-4
109.3681223784127 0.9999954916523769 -6.626178862258799E-4 4.5083476230144124E-6 6.626178862258799E-4 4.5083476230144124E-6 6.626178862258799E-4 0.9999954916523769 -6.626178862258799E-4
114.3763239890794 0.9999952890161217 -6.928421432790617E-4 4.710983878346169E-6 6.928421432790617E-4 4.710983878346169E-6 6.928421432790617E-4 0.9999952890161217 -6.928421432790617E-4
119.61386192579457 0.999995074892137 -7.244464704954416E-4 4.925107862981906E-6 7.244464704954416E-4 4.925107862981906E-6 7.244464704954416E-4 0.999995074892137 -7.244464704954416E-4
125.09123799230618 0.999994848496521 -7.574936609896566E-4 5.151503478834669E-6 7.574936609896566E-4 5.151503478834669E-6 7.574936609896566E-4 0.999994848496521 -7.574936609896566E-4
130.8194348925486 0.9999946090288968 -7.920493613348641E-4 5.390971103219412E-6 7.920493613348641E-4 5.390971103219412E-6 7.920493613348641E-4 0.9999946090288968 -7.920493613348641E-4
136.8099382520969 0.9999943556727892 -8.2818220792652E-4 5.644327210889172E-6 8.2818220792652E-4 5.644327210889172E-6 8.2818220792652E-4 0.9999943556727892 -8.2818220792652E-4
143.0747596480305 0.9999940875949456 -8.659639702382374E-4 5.9124050544430756E-6 8.659639702382374E-4 5.9124050544430756E-6 8.659639702382374E-4 0.9999940875949456 -8.659639702382374E-4
149.6264606933842 0.9999938039433696 -9.05469701166321E-4 6.1960566304149626E-6 9.05469701166321E-4 6.1960566304149626E-6 9.05469701166321E-4 0.9999938039433696 -9.05469701166321E-4
156.47817822447783 0.999993503843839 -9.467778946271574E-4 6.496156161062909E-6 9.467778946271574E-4 6.496156161062909E-6 9.467778946271574E-4 0.999993503843839 -9.467778946271574E-4
163.643650641628 0.999993186394686 -9.899706505361837E-4 6.813605314033669E-6 9.899706505361837E-4 6.813605314033669E-6 9.899706505361837E-4 0.999993186394686 -9.899706505361837E-4
171.13724545605763 0.9999928506596382 -0.001035133847261392 7.149340361952418E-6 0.001035133847261392 7.149340361952418E-6 0.001035133847261392 0.9999928506596382 -0.001035133847261392
178.97398809823787 0.9999924956585493 -0.0010823573216118272 7.504341450655067E-6 0.0010823573216118272 7.504341450655067E-6 0.0010823573216118272 0.9999924956585493 -0.0010823573216118272
187.1695920454257 0.9999921203559017 -0.001131735056396197 7.879644098347542E-6 0.001131735056396197 7.879644098347542E-6 0.001131735056396197 0.9999921203559017 -0.001131735056396197
195.74049032880657 0.9999917236470101 -0.0011833653755726743 8.276352989775627E-6 0.0011833653755726743 8.276352989775627E-6 0.0011833653755726743 0.9999917236470101 -0.0011833653755726743
204.70386848341695 0.9999913043419378 -0.0012373511470118394 8.695658062134162E-6 0.0012373511470118394 8.695658062134162E-6 0.0012373511470118394 0.9999913043419378 -0.0012373511470118394
214.0776990069143 0.9999908611471933 -0.0012937999929136725 9.138852806754362E-6 0.0012937999929136725 9.138852806754362E-6 0.0012937999929136725 0.9999908611471933 -0.0012937999929136725
223.88077739628844 0.9999903926453626 -0.001352824507958308 9.607354637350271E-6 0.001352824507958308 9.607354637350271E-6 0.001352824507958308 0.9999903926453626 -0.001352824507958308
234.132759834772 0.999989897272893 -0.001414542485329276 1.0102727107107099E-5 0.001414542485329276 1.0102727107107099E-5 0.001414542485329276 0.999989897272893 -0.001414542485329276
244.85420260451448 0.9999893732963016 -0.0014790771508260984 1.0626703698531232E-5 0.0014790771508260984 1.0626703698531232E-5 0.0014790771508260984 0.9999893732963016 -0.0014790771508260984
256.06660330404856 0.9999888187871333 -0.001546557405377324 1.1181212866617715E-5 0.001546557405377324 1.1181212866617715E-5 0.001546557405377324 0.9999888187871333 -0.001546557405377324
267.792443953192 0.9999882315960086 -0.0016171180763713466 1.1768403991360913E-5 0.0016171180763713466 1.1768403991360913E-5 0.0016171180763713466 0.9999882315960086 -0.0016171180763713466
280.0552360718164 0.9999876093261076 -0.0016909001783353887 1.239067389231778E-5 0.0016909001783353887 1.239067389231778E-5 0.0016909001783353887 0.9999876093261076 -0.0016909001783353887
292.87956782286926 0.9999869493064234 -0.0017680511836072857 1.3050693576528587E-5 0.0017680511836072857 1.3050693576528587E-5 0.0017680511836072857 0.9999869493064234 -0.0017680511836072857
306.2911533141767 0.9999862485650696 -0.0018487253037548599 1.37514349305991E-5 0.0018487253037548599 1.37514349305991E-5 0.0018487253037548599 0.9999862485650696 -0.0018487253037548599
320.3168841578819 0.9999855038028743 -0.0019330837825990398 1.4496197125643501E-5 0.0019330837825990398 1.4496197125643501E-5 0.0019330837825990398 0.9999855038028743 -0.0019330837825990398
334.9848833909005 0.9999847113674236 -0.0020212952017860664 1.52886325764633E-5 0.0020212952017860664 1.52886325764633E-5 0.0020212952017860664 0.9999847113674236 -0.0020212952017860664
350.32456186451077 0.9999838672276203 -0.0021135357999291565 1.6132772379593556E-5 0.0021135357999291565 1.6132772379593556E-5 0.0021135357999291565 0.9999838672276203 -0.0021135357999291565
366.36667721614316 0.9999829669487555 -0.002209989806400412 1.7033051244455783E-5 0.002209989806400412 1.7033051244455783E-5 0.002209989806400412 0.9999829669487555 -0.002209989806400412
383.1433955416162 0.9999820056679759 -0.0023108497909003324 1.7994332024086607E-5 0.0023108497909003324 1.7994332024086607E-5 0.0023108497909003324 0.9999820056679759 -0.0023108497909003324
400.68835589147574 0.999980978069956 -0.002416317029966866 1.9021930043929667E-5 0.002416317029966866 1.9021930043929667E-5 0.002416317029966866 0.999980978069956 -0.002416317029966866
419.03673772076064 0.9999798783624826 -0.002526601891610912 2.012163751729011E-5 0.002526601891610912 2.012163751729011E-5 0.002526601891610912 0.9999798783624826 -0.002526601891610912
438.225331427439 0.9999787002515763 -0.0026419242392826834 2.1299748423732955E-5 0.0026419242392826834 2.1299748423732955E-5 0.0026419242392826834 0.9999787002515763 -0.0026419242392826834
458.2926121209498 0.9999774369156876 -0.002762513856385552 2.2563084312469577E-5 0.002762513856385552 2.2563084312469577E-5 0.002762513856385552 0.9999774369156876 -0.002762513856385552
479.2788167687661 0.9999760809784222 -0.002888610892561722 2.3919021577845023E-5 0.002888610892561722 2.3919021577845023E-5 0.002888610892561722 0.9999760809784222 -0.002888610892561722
501.22602487566456 0.9999746244791601 -0.0030204663329773777 2.53755208399321E-5 0.0030204663329773777 2.53755208399321E-5 0.0030204663329773777 0.9999746244791601 -0.0030204663329773777
524.1782428574726 0.9999730588408487 -0.0031583424918329 2.6941159151273332E-5 0.0031583424918329 2.6941159151273332E-5 0.0031583424918329 0.9999730588408487 -0.0031583424918329
548.1814922784702 0.9999713748341584 -0.0033025135313137586 2.862516584160059E-5 0.0033025135313137586 2.862516584160059E-5 0.0033025135313137586 0.9999713748341584 -0.0033025135313137586
573.2839021293739 0.9999695625370946 -0.0034532660071775606 3.0437462905384475E-5 0.0034532660071775606 3.0437462905384475E-5 0.0034532660071775606 0.9999695625370946 -0.0034532660071775606
599.5358053309263 0.9999676112890696 -0.0036108994421387122 3.238871093029723E-5 0.0036108994421387122 3.238871093029723E-5 0.0036108994421387122 0.9999676112890696 -0.0036108994421387122
626.9898396565933 0.9999655096383455 -0.0037757269281621093 3.4490361654451026E-5 0.0037757269281621093 3.4490361654451026E-5 0.0037757269281621093 0.9999655096383455 -0.0037757269281621093
655.7010532767296 0.9999632452816788 -0.003948075758709166 3.6754718321281594E-5 0.003948075758709166 3.6754718321281594E-5 0.003948075758709166 0.9999632452816788 -0.003948075758709166
685.7270151358366 0.9999608049949336 -0.004128288091893407 3.919500506651058E-5 0.004128288091893407 3.919500506651058E-5 0.004128288091893407 0.9999608049949336 -0.004128288091893407
717.1279303842347 0.9999581745533858 -0.004316721645401374 4.182544661421658E-5 0.004316721645401374 4.182544661421658E-5 0.004316721645401374 0.9999581745533858 -0.004316721645401374
749.9667610955984 0.9999553386404288 -0.004513750423922687 4.466135957107706E-5 0.004513750423922687 4.466135957107706E-5 0.004513750423922687 0.9999553386404288 -0.004513750423922687
784.3093525124082 0.9999522807434174 -0.0047197654797191905 4.7719256582631154E-5 0.0047197654797191905 4.7719256582631154E-5 0.0047197654797191905 0.9999522807434174 -0.0047197654797191905
820.2245650724522 0.9999489830354518 -0.004935175706858574 5.101696454830525E-5 0.004935175706858574 5.101696454830525E-5 0.004935175706858574 0.9999489830354518 -0.004935175706858574
857.7844124811068 0.9999454262420185 -0.005160408669556112 5.457375798144253E-5 0.005160408669556112 5.457375798144253E-5 0.005160408669556112 0.9999454262420185 -0.005160408669556112
897.0642061062428 0.9999415894915505 -0.005395911465024837 5.841050844936114E-5 0.005395911465024837 5.841050844936114E-5 0.005395911465024837 0.9999415894915505 -0.005395911465024837
938.1427059852851 0.999937450149156 -0.005642151621244734 6.254985084404302E-5 0.005642151621244734 6.254985084404302E-5 0.005642151621244734 0.999937450149156 -0.005642151621244734
981.102278747212 0.9999329836329708 -0.005899618030139782 6.701636702906568E-5 0.005899618030139782 6.701636702906568E-5 0.005899618030139782 0.9999329836329708 -0.005899618030139782
1026.0290627661395 0.9999281632127998 -0.00616882191680872 7.183678720022189E-5 0.00616882191680872 7.183678720022189E-5 0.00616882191680872 0.9999281632127998 -0.00616882191680872
1073.0131408776467 0.9999229597908929 -0.006450297845697888 7.704020910720664E-5 0.006450297845697888 7.704020910720664E-5 0.006450297845697888 0.9999229597908929 -0.006450297845697888
1122.1487210041523 0.9999173416648647 -0.006744604764932754 8.265833513542208E-5 0.006744604764932754 8.265833513542208E-5 0.006744604764932754 0.9999173416648647 -0.006744604764932754
1173.5343250515148 0.9999112742728355 -0.007052327090432854 8.8725727164533E-5 0.007052327090432854 8.8725727164533E-5 0.007052327090432854 0.9999112742728355 -0.007052327090432854
1227.2729864556143 0.9999047199208736 -0.007374075831910281 9.528007912652174E-5 0.007374075831910281 9.528007912652174E-5 0.007374075831910281 0.9999047199208736 -0.007374075831910281
1283.4724567750195 0.9998976374927001 -0.0077104897633757455 1.0236250729981589E-4 0.0077104897633757455 1.0236250729981589E-4 0.0077104897633757455 0.9998976374927001 -0.0077104897633757455
1342.245421743976 0.9998899821413882 -0.008062236641326073 1.10017858611752E-4 0.008062236641326073 1.10017858611752E-4 0.008062236641326073 0.9998899821413882 -0.008062236641326073
1403.7097272189235 0.9998817049624127 -0.00843001447433637 1.1829503758734531E-4 0.00843001447433637 1.1829503758734531E-4 0.00843001447433637 0.9998817049624127 -0.00843001447433637
1467.9886154715937 0.9998727526469201 -0.008814552848302536 1.2724735307992745E-4 0.008814552848302536 1.2724735307992745E-4 0.008814552848302536 0.9998727526469201 -0.008814552848302536
1535.2109723024755 0.9998630671134555 -0.009216614312048808 1.36932886544598E-4 0.009216614312048808 1.36932886544598E-4 0.009216614312048808 0.9998630671134555 -0.009216614312048808
1605.5115854701387 0.9998525851156407 -0.00963699582840687 1.4741488435941066E-4 0.00963699582840687 1.4741488435941066E-4 0.00963699582840687 0.9998525851156407 -0.00963699582840687
1679.0314149545911 0.9998412378224514 -0.010076530296166042 1.587621775484932E-4 0.010076530296166042 1.587621775484932E-4 0.010076530296166042 0.9998412378224514 -0.010076530296166042
1755.9178755965756 0.9998289503668002 -0.010536088148470776 1.7104963319963289E-4 0.010536088148470776 1.7104963319963289E-4 0.010536088148470776 0.9998289503668002 -0.010536088148470776
1836.3251326795319 0.9998156413571224 -0.011016579033285909 1.8435864287763128E-4 0.011016579033285909 1.8435864287763128E-4 0.011016579033285909 0.9998156413571224 -0.011016579033285909
1920.4144110468878 0.9998012223456064 -0.011518953581450674 1.9877765439347484E-4 0.011518953581450674 1.9877765439347484E-4 0.011518953581450674 0.9998012223456064 -0.011518953581450674
2008.3543183745 0.9997855972456244 -0.012044205267588825 2.1440275437544746E-4 0.012044205267588825 2.1440275437544746E-4 0.012044205267588825 0.9997855972456244 -0.012044205267588825
2100.321183246434 0.9997686616898234 -0.012593372368727103 2.313383101766036E-4 0.012593372368727103 2.313383101766036E-4 0.012593372368727103 0.9997686616898234 -0.012593372368727103
2196.4994087119585 0.9997503023192845 -0.013167540024895492 2.4969768071541877E-4 0.013167540024895492 2.4969768071541877E-4 0.013167540024895492 0.9997503023192845 -0.013167540024895492
2297.0818420326846 0.9997303959931484 -0.013767842405240711 2.696040068515792E-4 0.013767842405240711 2.696040068515792E-4 0.013767842405240711 0.9997303959931484 -0.013767842405240711
2402.270161361206 0.9997088089071872 -0.014395464982289002 2.9119109281280757E-4 0.014395464982289002 2.9119109281280757E-4 0.014395464982289002 0.9997088089071872 -0.014395464982289002
2512.2752801266033 0.9996853956090239 -0.015051646915963612 3.146043909761696E-4 0.015051646915963612 3.146043909761696E-4 0.015051646915963612 0.9996853956090239 -0.015051646915963612
2627.3177699376165 0.9996599978970652 -0.015737683547825513 3.4000210293484386E-4 0.015737683547825513 3.4000210293484386E-4 0.015737683547825513 0.9996599978970652 -0.015737683547825513
2747.6283028514745 0.9996324435897793 -0.01645492900480541 3.675564102206434E-4 0.01645492900480541 3.675564102206434E-4 0.01645492900480541 0.9996324435897793 -0.01645492900480541
2873.4481138951564 0.9996025451517146 -0.017204798910483602 3.9745484828547007E-4 0.017204798910483602 3.9745484828547007E-4 0.017204798910483602 0.9996025451517146 -0.017204798910483602
3005.0294847665045 0.9995700981626315 -0.017988773200817067 4.2990183736840276E-4 0.017988773200817067 4.2990183736840276E-4 0.017988773200817067 0.9995700981626315 -0.017988773200817067
3142.6362496850466 0.9995348796162941 -0.018808399040177753 4.6512038370588626E-4 0.018808399040177753 4.6512038370588626E-4 0.018808399040177753 0.9995348796162941 -0.018808399040177753
3286.544324406816 0.99949664603578 -0.01966529383272167 5.033539642200656E-4 0.01966529383272167 5.033539642200656E-4 0.01966529383272167 0.99949664603578 -0.01966529383272167
3437.0422594639017 0.9994551313925919 -0.020561148323515355 5.448686074081742E-4 0.020561148323515355 5.448686074081742E-4 0.020561148323515355 0.9994551313925919 -0.020561148323515355
3594.431818738024 0.9994100448172607 -0.021497729783546464 5.899551827393277E-4 0.021497729783546464 5.899551827393277E-4 0.021497729783546464 0.9994100448172607 -0.021497729783546464
3759.0285845282415 0.9993610680894536 -0.02247688527275776 6.389319105463874E-4 0.02247688527275776 6.389319105463874E-4 0.02247688527275776 0.9993610680894536 -0.02247688527275776
3931.162590326006 0.9993078528957092 -0.02350054497555707 6.921471042908816E-4 0.02350054497555707 6.921471042908816E-4 0.02350054497555707 0.9993078528957092 -0.02350054497555707
4111.17898256636 0.999250017842712 -0.024570725603821883 7.499821572880354E-4 0.024570725603821883 7.499821572880354E-4 0.024570725603821883 0.999250017842712 -0.024570725603821883
4299.438712682125 0.9991871452133956 -0.02568953386316072 8.12854786604542E-4 0.02568953386316072 8.12854786604542E-4 0.02568953386316072 0.9991871452133956 -0.02568953386316072
4496.31926084876 0.9991187774520411 -0.02685916997900628 8.812225479587858E-4 0.02685916997900628 8.812225479587858E-4 0.02685916997900628 0.9991187774520411 -0.02685916997900628
4702.215392871039 0.9990444133628934 -0.028081931279873337 9.555866371065971E-4 0.028081931279873337 9.555866371065971E-4 0.028081931279873337 0.9990444133628934 -0.028081931279873337
4917.539951729213 0.9989635040046048 -0.02936021583568459 0.0010364959953951887 0.02936021583568459 0.0010364959953951887 0.02936021583568459 0.9989635040046048 -0.02936021583568459
5142.724685371758 0.9988754482601111 -0.03069652614932032 0.00112455173988896 0.03069652614932032 0.00112455173988896 0.03069652614932032 0.9988754482601111 -0.03069652614932032
5378.221112414543 0.9987795880583418 -0.03209347289936818 0.001220411941658276 0.03209347289936818 0.001220411941658276 0.03209347289936818 0.9987795880583418 -0.03209347289936818
5624.501427482224 0.9986752032206011 -0.033553778731346205 0.0013247967793988972 0.033553778731346205 0.0013247967793988972 0.033553778731346205 0.9986752032206011 -0.033553778731346205
5882.059448007167 0.9985615059005735 -0.03508028209337912 0.0014384940994264244 0.03508028209337912 0.0014384940994264244 0.03508028209337912 0.9985615059005735 -0.03508028209337912
6151.41160438433 0.9984376345828222 -0.03667594111039248 0.0015623654171777381 0.03667594111039248 0.0015623654171777381 0.03667594111039248 0.9984376345828222 -0.03667594111039248
6433.097975467465 0.9983026476004297 -0.038343837488332394 0.0016973523995703211 0.038343837488332394 0.0016973523995703211 0.038343837488332394 0.9983026476004297 -0.038343837488332394
6727.683371482931 0.9981555161281402 -0.04008718043673178 0.0018444838718597685 0.04008718043673178 0.0018444838718597685 0.04008718043673178 0.9981555161281402 -0.04008718043673178
7035.758466532445 0.9979951166030433 -0.041909310594129105 0.0020048833969567668 0.041909310594129105 0.0020048833969567668 0.041909310594129105 0.9979951166030433 -0.041909310594129105
7357.940982955574 0.9978202225204964 -0.043813703936415406 0.002179777479503691 0.043813703936415406 0.002179777479503691 0.043813703936415406 0.9978202225204964 -0.043813703936415406
7694.876929926739 0.997629495548626 -0.04580397564312571 0.0023705044513739545 0.04580397564312571 0.0023705044513739545 0.04580397564312571 0.997629495548626 -0.04580397564312571
8047.241898770236 0.9974214759003333 -0.04788388389096968 0.0025785240996667696 0.04788388389096968 0.0025785240996667696 0.04788388389096968 0.9974214759003333 -0.04788388389096968
8415.742417590522 0.9971945718972459 -0.0500573335374461 0.0028054281027541177 0.0500573335374461 0.0028054281027541177 0.0500573335374461 0.9971945718972459 -0.0500573335374461
8801.117367933934 0.9969470486554799 -0.05232837965010696 0.003052951344520026 0.05232837965010696 0.003052951344520026 0.05232837965010696 0.9969470486554799 -0.05232837965010696
9204.139466322391 0.9966770158183782 -0.054701230828781915 0.003322984181621779 0.054701230828781915 0.003322984181621779 0.054701230828781915 0.9966770158183782 -0.054701230828781915
9625.61681362972 0.9963824142566216 -0.057180252258672445 0.003617585743378321 0.057180252258672445 0.003617585743378321 0.057180252258672445 0.9963824142566216 -0.057180252258672445
10066.394515407255 0.9960610016513107 -0.05976996842145562 0.003938998348689284 0.05976996842145562 0.003938998348689284 0.05976996842145562 0.9960610016513107 -0.05976996842145562
10527.356376407623 0.9957103368709064 -0.06247506537916988 0.004289663129093556 0.06247506537916988 0.004289663129093556 0.06247506537916988 0.9957103368709064 -0.06247506537916988
11009.426672704432 0.995327763048492 -0.06530039253143044 0.004672236951508008 0.06530039253143044 0.004672236951508008 0.06530039253143044 0.995327763048492 -0.06530039253143044
